T4C80 000:004.123   SEGGER J-Link V6.70e Log File
T4C80 000:004.239   DLL Compiled: Apr 17 2020 17:55:05
T4C80 000:004.244   Logging started @ 2020-09-29 07:48
T4C80 000:004.252 JLINK_SetWarnOutHandler(...)
T4C80 000:004.258 - 0.009ms
T4C80 000:004.268 JLINK_OpenEx(...)
T4C80 000:005.655   Firmware: J-Link V9 compiled Dec 13 2019 11:14:50
T4C80 000:005.830   Decompressing FW timestamp took 142 us
T4C80 000:012.359   Hardware: V9.50
T4C80 000:012.377   S/N: 63528771
T4C80 000:012.385   OEM: SEGGER
T4C80 000:012.392   Feature(s): RDI, GDB, FlashDL, FlashBP, JFlash
T4C80 000:013.440   TELNET listener socket opened on port 19021
T4C80 000:013.515   WEBSRV Starting webserver
T4C80 000:013.641   WEBSRV Webserver running on local port 19080
T4C80 000:013.650 - 9.385ms returns "O.K."
T4C80 000:013.670 JLINK_GetEmuCaps()
T4C80 000:013.675 - 0.007ms returns 0xB9FF7BBF
T4C80 000:013.682 JLINK_TIF_GetAvailable(...)
T4C80 000:013.830 - 0.154ms
T4C80 000:013.844 JLINK_SetErrorOutHandler(...)
T4C80 000:013.849 - 0.007ms
T4C80 000:013.866 JLINK_ExecCommand("ProjectFile = "E:\work\LiteSilverware\Silverware\JLinkSettings.ini"", ...). 
T4C80 000:026.302   Device "STM32F042G6" selected.
T4C80 000:027.258 - 13.406ms returns 0x00
T4C80 000:028.916 JLINK_ExecCommand("Device = STM32F042G6Ux", ...). 
T4C80 000:031.134   Device "STM32F042G6" selected.
T4C80 000:031.982 - 3.055ms returns 0x00
T4C80 000:031.995 JLINK_ExecCommand("DisableConnectionTimeout", ...). 
T4C80 000:032.007 - 0.005ms returns 0x01
T4C80 000:032.014 JLINK_GetHardwareVersion()
T4C80 000:032.019 - 0.007ms returns 0x17318
T4C80 000:032.025 JLINK_GetDLLVersion()  returns 67005
T4C80 000:032.037 JLINK_GetFirmwareString(...)
T4C80 000:032.042 - 0.007ms
T4C80 000:042.326 JLINK_GetDLLVersion()  returns 67005
T4C80 000:042.342 JLINK_GetCompileDateTime()
T4C80 000:042.347 - 0.007ms
T4C80 000:045.940 JLINK_GetFirmwareString(...)
T4C80 000:045.951 - 0.014ms
T4C80 000:051.208 JLINK_GetHardwareVersion()
T4C80 000:051.223 - 0.017ms returns 0x17318
T4C80 000:066.944 JLINK_TIF_Select(JLINKARM_TIF_SWD)
T4C80 000:067.747 - 0.811ms returns 0x00
T4C80 000:067.778 JLINK_SetSpeed(5000)
T4C80 000:067.899 - 0.126ms
T4C80 000:067.911 JLINK_GetId()
T4C80 000:072.366   Found SW-DP with ID 0x0BB11477
T4C80 000:088.727   Found SW-DP with ID 0x0BB11477
T4C80 000:090.427   Old FW that does not support reading DPIDR via DAP jobs
T4C80 000:094.332   Unknown DP version. Assuming DPv0
T4C80 000:098.124   Scanning AP map to find all available APs
T4C80 000:104.532   AP[1]: Stopped AP scan as end of AP map has been reached
T4C80 000:108.023   AP[0]: AHB-AP (IDR: 0x04770021)
T4C80 000:111.824   Iterating through AP map to find AHB-AP to use
T4C80 000:116.880   AP[0]: Core found
T4C80 000:120.301   AP[0]: AHB-AP ROM base: 0xE00FF000
T4C80 000:124.981   CPUID register: 0x410CC200. Implementer code: 0x41 (ARM)
T4C80 000:128.436   Found Cortex-M0 r0p0, Little endian.
T4C80 000:229.603    -- Max. mem block: 0x00010BD0
T4C80 000:229.634   CPU_ReadMem(4 bytes @ 0xE000EDF0)
T4C80 000:230.028   CPU_WriteMem(4 bytes @ 0xE000EDF0)
T4C80 000:230.299   CPU_ReadMem(4 bytes @ 0xE0002000)
T4C80 000:234.020   FPUnit: 4 code (BP) slots and 0 literal slots
T4C80 000:234.036   CPU_ReadMem(4 bytes @ 0xE000EDFC)
T4C80 000:234.341   CPU_WriteMem(4 bytes @ 0xE000EDFC)
T4C80 000:234.647   CPU_ReadMem(4 bytes @ 0xE0001000)
T4C80 000:234.904   CPU_WriteMem(4 bytes @ 0xE0001000)
T4C80 000:238.520   CoreSight components:
T4C80 000:242.991   ROMTbl[0] @ E00FF000
T4C80 000:243.008   CPU_ReadMem(64 bytes @ 0xE00FF000)
T4C80 000:243.569   CPU_ReadMem(32 bytes @ 0xE000EFE0)
T4C80 000:247.365   ROMTbl[0][0]: E000E000, CID: B105E00D, PID: 000BB008 SCS
T4C80 000:247.379   CPU_ReadMem(32 bytes @ 0xE0001FE0)
T4C80 000:251.231   ROMTbl[0][1]: E0001000, CID: B105E00D, PID: 000BB00A DWT
T4C80 000:251.251   CPU_ReadMem(32 bytes @ 0xE0002FE0)
T4C80 000:255.145   ROMTbl[0][2]: E0002000, CID: B105E00D, PID: 000BB00B FPB
T4C80 000:255.448 - 187.543ms   returns 0x0BB11477
T4C80 000:255.464 JLINK_GetDLLVersion()  returns 67005
T4C80 000:255.541 JLINK_CORE_GetFound()
T4C80 000:255.550 - 0.011ms returns 0x60000FF
T4C80 000:255.558 JLINK_GetDebugInfo(0x100 = JLINKARM_ROM_TABLE_ADDR_INDEX)
T4C80 000:255.566   Value=0xE00FF000
T4C80 000:255.573 - 0.018ms returns 0x00
T4C80 000:259.645 JLINK_GetDebugInfo(0x100 = JLINKARM_ROM_TABLE_ADDR_INDEX)
T4C80 000:259.657   Value=0xE00FF000
T4C80 000:259.664 - 0.021ms returns 0x00
T4C80 000:259.671 JLINK_GetDebugInfo(0x101 = JLINKARM_DEBUG_INFO_ETM_ADDR_INDEX)
T4C80 000:259.676   Value=0x00000000
T4C80 000:259.683 - 0.014ms returns 0x00
T4C80 000:259.700   JLINK_ReadMemEx(0xE0041FF0, 0x0010 Bytes, ..., Flags = 0x02000004)
T4C80 000:259.728   CPU_ReadMem(16 bytes @ 0xE0041FF0)
T4C80 000:260.076   Data:  00 00 00 00 00 00 00 00 00 00 00 00 00 00 00 00
T4C80 000:260.087 - 0.393ms returns 0x10
T4C80 000:260.095 JLINK_GetDebugInfo(0x102 = JLINKARM_DEBUG_INFO_MTB_ADDR_INDEX)
T4C80 000:260.101   Value=0x00000000
T4C80 000:260.117 - 0.024ms returns 0x00
T4C80 000:260.124 JLINK_GetDebugInfo(0x103 = JLINKARM_DEBUG_INFO_TPIU_ADDR_INDEX)
T4C80 000:260.129   Value=0x00000000
T4C80 000:260.136 - 0.014ms returns 0x00
T4C80 000:260.143   JLINK_ReadMemEx(0xE0040FF0, 0x0010 Bytes, ..., Flags = 0x02000004)
T4C80 000:260.154   CPU_ReadMem(16 bytes @ 0xE0040FF0)
T4C80 000:260.565   Data:  00 00 00 00 00 00 00 00 00 00 00 00 00 00 00 00
T4C80 000:260.575 - 0.435ms returns 0x10
T4C80 000:260.584 JLINK_GetDebugInfo(0x104 = JLINKARM_DEBUG_INFO_ITM_ADDR_INDEX)
T4C80 000:260.589   Value=0xE0000000
T4C80 000:260.596 - 0.014ms returns 0x00
T4C80 000:260.602 JLINK_GetDebugInfo(0x105 = JLINKARM_DEBUG_INFO_DWT_ADDR_INDEX)
T4C80 000:260.607   Value=0xE0001000
T4C80 000:260.614 - 0.014ms returns 0x00
T4C80 000:260.620 JLINK_GetDebugInfo(0x106 = JLINKARM_DEBUG_INFO_FPB_ADDR_INDEX)
T4C80 000:260.625   Value=0xE0002000
T4C80 000:260.632 - 0.013ms returns 0x00
T4C80 000:260.638 JLINK_GetDebugInfo(0x107 = JLINKARM_DEBUG_INFO_NVIC_ADDR_INDEX)
T4C80 000:260.643   Value=0xE000E000
T4C80 000:260.649 - 0.013ms returns 0x00
T4C80 000:260.655 JLINK_GetDebugInfo(0x10C = JLINKARM_DEBUG_INFO_DBG_ADDR_INDEX)
T4C80 000:260.660   Value=0xE000EDF0
T4C80 000:260.667 - 0.014ms returns 0x00
T4C80 000:260.673 JLINK_GetDebugInfo(0x01 = Unknown)
T4C80 000:260.684   Value=0x00000000
T4C80 000:260.691 - 0.019ms returns 0x00
T4C80 000:260.700 JLINK_ReadMemU32(0xE000ED00, 0x0001 Items, ...)
T4C80 000:260.709   CPU_ReadMem(4 bytes @ 0xE000ED00)
T4C80 000:261.058   Data:  00 C2 0C 41
T4C80 000:261.074    - CPUID
T4C80 000:261.081 - 0.383ms returns 1
T4C80 000:261.089 JLINK_GetDebugInfo(0x10F = JLINKARM_DEBUG_INFO_HAS_CORTEX_M_SECURITY_EXT_INDEX)
T4C80 000:261.095   Value=0x00000000
T4C80 000:261.102 - 0.018ms returns 0x00
T4C80 000:261.114 JLINK_SetResetType(JLINKARM_CM3_RESET_TYPE_NORMAL)
T4C80 000:261.120 - 0.007ms returns JLINKARM_CM3_RESET_TYPE_NORMAL
T4C80 000:261.126 JLINK_Reset()
T4C80 000:261.148   CPU is running
T4C80 000:261.156   CPU_WriteMem(4 bytes @ 0xE000EDF0)
T4C80 000:261.506   CPU is running
T4C80 000:261.517   CPU_WriteMem(4 bytes @ 0xE000EDFC)
T4C80 000:265.703   Reset: Halt core after reset via DEMCR.VC_CORERESET.
T4C80 000:270.704   Reset: Reset device via AIRCR.SYSRESETREQ.
T4C80 000:270.724   CPU is running
T4C80 000:270.734   CPU_WriteMem(4 bytes @ 0xE000ED0C)
T4C80 000:323.915   CPU_ReadMem(4 bytes @ 0xE000EDF0)
T4C80 000:324.447   CPU_ReadMem(4 bytes @ 0xE000EDF0)
T4C80 000:324.724   CPU is running
T4C80 000:324.735   CPU_WriteMem(4 bytes @ 0xE000EDF0)
T4C80 000:324.981   CPU is running
T4C80 000:324.993   CPU_WriteMem(4 bytes @ 0xE000EDFC)
T4C80 000:331.097   CPU_ReadMem(4 bytes @ 0xE000EDF0)
T4C80 000:333.262   CPU_WriteMem(4 bytes @ 0xE0002000)
T4C80 000:333.596   CPU_ReadMem(4 bytes @ 0xE000EDFC)
T4C80 000:333.958   CPU_ReadMem(4 bytes @ 0xE0001000)
T4C80 000:334.304   CPU_WriteMem(4 bytes @ 0xE0001000)
T4C80 000:334.604 - 73.483ms
T4C80 000:334.619 JLINK_Halt()
T4C80 000:334.625 - 0.007ms returns 0x00
T4C80 000:334.632 JLINK_ReadMemU32(0xE000EDF0, 0x0001 Items, ...)
T4C80 000:334.644   CPU_ReadMem(4 bytes @ 0xE000EDF0)
T4C80 000:334.948   Data:  03 00 03 00
T4C80 000:334.958    - DHCSR
T4C80 000:334.965 - 0.336ms returns 1
T4C80 000:334.975 JLINK_WriteU32(0xE000EDF0, 0xA05F0003)
T4C80 000:334.981    - DHCSR
T4C80 000:335.000   CPU_WriteMem(4 bytes @ 0xE000EDF0)
T4C80 000:335.296 - 0.326ms returns 0
T4C80 000:335.309 JLINK_WriteU32(0xE000EDFC, 0x01000000)
T4C80 000:335.315    - DEMCR
T4C80 000:335.327   CPU_WriteMem(4 bytes @ 0xE000EDFC)
T4C80 000:335.695 - 0.390ms returns 0
T4C80 000:350.596 JLINK_GetHWStatus(...)
T4C80 000:350.835 - 0.247ms returns 0x00
T4C80 000:361.575 JLINK_GetNumBPUnits(Type = 0xFFFFFF00)
T4C80 000:361.591 - 0.019ms returns 0x04
T4C80 000:361.598 JLINK_GetNumBPUnits(Type = 0xF0)
T4C80 000:361.604 - 0.007ms returns 0x2000
T4C80 000:361.610 JLINK_GetNumWPUnits()
T4C80 000:361.615 - 0.007ms returns 0x02
T4C80 000:373.819 JLINK_GetSpeed()
T4C80 000:373.833 - 0.017ms returns 0xFA0
T4C80 000:381.692 JLINK_ReadMemU32(0xE000E004, 0x0001 Items, ...)
T4C80 000:381.717   CPU_ReadMem(4 bytes @ 0xE000E004)
T4C80 000:382.010   Data:  00 00 00 00
T4C80 000:382.021 - 0.331ms returns 1
T4C80 000:382.032 JLINK_Halt()
T4C80 000:382.037 - 0.007ms returns 0x00
T4C80 000:382.044 JLINK_IsHalted()
T4C80 000:382.049 - 0.007ms returns TRUE
T4C80 000:384.885 JLINK_WriteMem(0x20000000, 0x0170 Bytes, ...)
T4C80 000:384.897   Data:  00 BE 0A E0 0D 78 2D 06 68 40 08 24 40 00 00 D3 ...
T4C80 000:385.295   CPU_WriteMem(368 bytes @ 0x20000000)
T4C80 000:387.008 - 2.129ms returns 0x170
T4C80 000:387.043 JLINK_WriteReg(R0, 0x08000000)
T4C80 000:387.051 - 0.011ms returns 0x00
T4C80 000:387.058 JLINK_WriteReg(R1, 0x00B71B00)
T4C80 000:387.063 - 0.007ms returns 0x00
T4C80 000:387.070 JLINK_WriteReg(R2, 0x00000001)
T4C80 000:387.076 - 0.007ms returns 0x00
T4C80 000:387.083 JLINK_WriteReg(R3, 0x00000000)
T4C80 000:387.088 - 0.007ms returns 0x00
T4C80 000:387.095 JLINK_WriteReg(R4, 0x00000000)
T4C80 000:387.100 - 0.007ms returns 0x00
T4C80 000:387.106 JLINK_WriteReg(R5, 0x00000000)
T4C80 000:387.111 - 0.007ms returns 0x00
T4C80 000:387.118 JLINK_WriteReg(R6, 0x00000000)
T4C80 000:387.123 - 0.007ms returns 0x00
T4C80 000:387.130 JLINK_WriteReg(R7, 0x00000000)
T4C80 000:387.134 - 0.007ms returns 0x00
T4C80 000:387.141 JLINK_WriteReg(R8, 0x00000000)
T4C80 000:387.146 - 0.007ms returns 0x00
T4C80 000:387.152 JLINK_WriteReg(R9, 0x2000016C)
T4C80 000:387.157 - 0.007ms returns 0x00
T4C80 000:387.164 JLINK_WriteReg(R10, 0x00000000)
T4C80 000:387.169 - 0.007ms returns 0x00
T4C80 000:387.175 JLINK_WriteReg(R11, 0x00000000)
T4C80 000:387.181 - 0.007ms returns 0x00
T4C80 000:387.188 JLINK_WriteReg(R12, 0x00000000)
T4C80 000:387.193 - 0.007ms returns 0x00
T4C80 000:387.199 JLINK_WriteReg(R13 (SP), 0x20001000)
T4C80 000:387.205 - 0.008ms returns 0x00
T4C80 000:387.211 JLINK_WriteReg(R14, 0x20000001)
T4C80 000:387.216 - 0.007ms returns 0x00
T4C80 000:387.222 JLINK_WriteReg(R15 (PC), 0x20000038)
T4C80 000:387.227 - 0.007ms returns 0x00
T4C80 000:387.234 JLINK_WriteReg(XPSR, 0x01000000)
T4C80 000:387.240 - 0.007ms returns 0x00
T4C80 000:387.246 JLINK_WriteReg(MSP, 0x20001000)
T4C80 000:387.251 - 0.007ms returns 0x00
T4C80 000:387.258 JLINK_WriteReg(PSP, 0x20001000)
T4C80 000:387.263 - 0.007ms returns 0x00
T4C80 000:387.269 JLINK_WriteReg(CFBP, 0x00000000)
T4C80 000:387.274 - 0.007ms returns 0x00
T4C80 000:387.281   JLINK_SetBPEx(Addr = 0x20000000, Type = 0xFFFFFFF2)
T4C80 000:387.291   CPU_ReadMem(2 bytes @ 0x20000000)
T4C80 000:387.652 - 0.377ms returns 0x00000001
T4C80 000:387.664 JLINK_Go()
T4C80 000:387.672   CPU_WriteMem(2 bytes @ 0x20000000)
T4C80 000:387.953   CPU_ReadMem(4 bytes @ 0xE0001000)
T4C80 000:388.336   CPU_WriteMem(4 bytes @ 0xE0001000)
T4C80 000:388.346   CPU_WriteMem(4 bytes @ 0xE0002008)
T4C80 000:388.353   CPU_WriteMem(4 bytes @ 0xE000200C)
T4C80 000:388.360   CPU_WriteMem(4 bytes @ 0xE0002010)
T4C80 000:388.368   CPU_WriteMem(4 bytes @ 0xE0002014)
T4C80 000:389.277   CPU_WriteMem(4 bytes @ 0xE0001004)
T4C80 000:391.438 - 3.780ms
T4C80 000:391.452 JLINK_IsHalted()
T4C80 000:393.596   CPU_ReadMem(2 bytes @ 0x20000000)
T4C80 000:393.889 - 2.442ms returns TRUE
T4C80 000:393.902 JLINK_ReadReg(R15 (PC))
T4C80 000:393.909 - 0.009ms returns 0x20000000
T4C80 000:393.916 JLINK_ClrBPEx(BPHandle = 0x00000001)
T4C80 000:393.922 - 0.008ms returns 0x00
T4C80 000:393.955 JLINK_ReadReg(R0)
T4C80 000:393.965 - 0.013ms returns 0x00000000
T4C80 000:394.202 JLINK_WriteReg(R0, 0x08000000)
T4C80 000:394.211 - 0.011ms returns 0x00
T4C80 000:394.217 JLINK_WriteReg(R1, 0x00B71B00)
T4C80 000:394.223 - 0.007ms returns 0x00
T4C80 000:394.229 JLINK_WriteReg(R2, 0x00000001)
T4C80 000:394.234 - 0.007ms returns 0x00
T4C80 000:394.240 JLINK_WriteReg(R3, 0x00000000)
T4C80 000:394.245 - 0.007ms returns 0x00
T4C80 000:394.251 JLINK_WriteReg(R4, 0x00000000)
T4C80 000:394.256 - 0.007ms returns 0x00
T4C80 000:394.262 JLINK_WriteReg(R5, 0x00000000)
T4C80 000:394.267 - 0.007ms returns 0x00
T4C80 000:394.273 JLINK_WriteReg(R6, 0x00000000)
T4C80 000:394.278 - 0.007ms returns 0x00
T4C80 000:394.284 JLINK_WriteReg(R7, 0x00000000)
T4C80 000:394.289 - 0.007ms returns 0x00
T4C80 000:394.295 JLINK_WriteReg(R8, 0x00000000)
T4C80 000:394.300 - 0.007ms returns 0x00
T4C80 000:394.306 JLINK_WriteReg(R9, 0x2000016C)
T4C80 000:394.311 - 0.007ms returns 0x00
T4C80 000:394.317 JLINK_WriteReg(R10, 0x00000000)
T4C80 000:394.322 - 0.007ms returns 0x00
T4C80 000:394.328 JLINK_WriteReg(R11, 0x00000000)
T4C80 000:394.333 - 0.007ms returns 0x00
T4C80 000:394.340 JLINK_WriteReg(R12, 0x00000000)
T4C80 000:394.345 - 0.007ms returns 0x00
T4C80 000:394.351 JLINK_WriteReg(R13 (SP), 0x20001000)
T4C80 000:394.356 - 0.007ms returns 0x00
T4C80 000:394.362 JLINK_WriteReg(R14, 0x20000001)
T4C80 000:394.367 - 0.007ms returns 0x00
T4C80 000:394.373 JLINK_WriteReg(R15 (PC), 0x20000074)
T4C80 000:394.378 - 0.007ms returns 0x00
T4C80 000:394.384 JLINK_WriteReg(XPSR, 0x01000000)
T4C80 000:394.389 - 0.007ms returns 0x00
T4C80 000:394.396 JLINK_WriteReg(MSP, 0x20001000)
T4C80 000:394.401 - 0.007ms returns 0x00
T4C80 000:394.407 JLINK_WriteReg(PSP, 0x20001000)
T4C80 000:394.412 - 0.007ms returns 0x00
T4C80 000:394.418 JLINK_WriteReg(CFBP, 0x00000000)
T4C80 000:394.423 - 0.007ms returns 0x00
T4C80 000:394.430   JLINK_SetBPEx(Addr = 0x20000000, Type = 0xFFFFFFF2)
T4C80 000:394.437 - 0.010ms returns 0x00000002
T4C80 000:394.444 JLINK_Go()
T4C80 000:394.452   CPU_ReadMem(4 bytes @ 0xE0001000)
T4C80 000:394.716   CPU_WriteMem(4 bytes @ 0xE0001000)
T4C80 000:396.759 - 2.321ms
T4C80 000:396.771 JLINK_IsHalted()
T4C80 000:397.026 - 0.260ms returns FALSE
T4C80 000:410.848 JLINK_IsHalted()
T4C80 000:411.145 - 0.302ms returns FALSE
T4C80 000:413.959 JLINK_IsHalted()
T4C80 000:414.255 - 0.301ms returns FALSE
T4C80 000:415.959 JLINK_IsHalted()
T4C80 000:416.227 - 0.274ms returns FALSE
T4C80 000:417.880 JLINK_IsHalted()
T4C80 000:418.195 - 0.320ms returns FALSE
T4C80 000:419.950 JLINK_IsHalted()
T4C80 000:421.925   CPU_ReadMem(2 bytes @ 0x20000000)
T4C80 000:422.258 - 2.314ms returns TRUE
T4C80 000:422.272 JLINK_ReadReg(R15 (PC))
T4C80 000:422.280 - 0.010ms returns 0x20000000
T4C80 000:422.287 JLINK_ClrBPEx(BPHandle = 0x00000002)
T4C80 000:422.292 - 0.008ms returns 0x00
T4C80 000:422.299 JLINK_ReadReg(R0)
T4C80 000:422.304 - 0.007ms returns 0x00000000
T4C80 000:474.404 JLINK_WriteReg(R0, 0x00000001)
T4C80 000:474.424 - 0.022ms returns 0x00
T4C80 000:474.431 JLINK_WriteReg(R1, 0x00B71B00)
T4C80 000:474.436 - 0.008ms returns 0x00
T4C80 000:474.443 JLINK_WriteReg(R2, 0x00000001)
T4C80 000:474.448 - 0.007ms returns 0x00
T4C80 000:474.454 JLINK_WriteReg(R3, 0x00000000)
T4C80 000:474.459 - 0.007ms returns 0x00
T4C80 000:474.465 JLINK_WriteReg(R4, 0x00000000)
T4C80 000:474.470 - 0.007ms returns 0x00
T4C80 000:474.476 JLINK_WriteReg(R5, 0x00000000)
T4C80 000:474.481 - 0.007ms returns 0x00
T4C80 000:474.487 JLINK_WriteReg(R6, 0x00000000)
T4C80 000:474.492 - 0.007ms returns 0x00
T4C80 000:474.499 JLINK_WriteReg(R7, 0x00000000)
T4C80 000:474.540 - 0.046ms returns 0x00
T4C80 000:474.550 JLINK_WriteReg(R8, 0x00000000)
T4C80 000:474.555 - 0.007ms returns 0x00
T4C80 000:474.561 JLINK_WriteReg(R9, 0x2000016C)
T4C80 000:474.566 - 0.007ms returns 0x00
T4C80 000:474.572 JLINK_WriteReg(R10, 0x00000000)
T4C80 000:474.577 - 0.007ms returns 0x00
T4C80 000:474.583 JLINK_WriteReg(R11, 0x00000000)
T4C80 000:474.588 - 0.007ms returns 0x00
T4C80 000:474.594 JLINK_WriteReg(R12, 0x00000000)
T4C80 000:474.599 - 0.007ms returns 0x00
T4C80 000:474.606 JLINK_WriteReg(R13 (SP), 0x20001000)
T4C80 000:474.612 - 0.008ms returns 0x00
T4C80 000:474.618 JLINK_WriteReg(R14, 0x20000001)
T4C80 000:474.623 - 0.007ms returns 0x00
T4C80 000:474.629 JLINK_WriteReg(R15 (PC), 0x20000066)
T4C80 000:474.634 - 0.007ms returns 0x00
T4C80 000:474.640 JLINK_WriteReg(XPSR, 0x01000000)
T4C80 000:474.645 - 0.007ms returns 0x00
T4C80 000:474.651 JLINK_WriteReg(MSP, 0x20001000)
T4C80 000:474.656 - 0.007ms returns 0x00
T4C80 000:474.663 JLINK_WriteReg(PSP, 0x20001000)
T4C80 000:474.668 - 0.007ms returns 0x00
T4C80 000:474.674 JLINK_WriteReg(CFBP, 0x00000000)
T4C80 000:474.679 - 0.007ms returns 0x00
T4C80 000:474.686   JLINK_SetBPEx(Addr = 0x20000000, Type = 0xFFFFFFF2)
T4C80 000:474.694 - 0.011ms returns 0x00000003
T4C80 000:474.701 JLINK_Go()
T4C80 000:474.714   CPU_ReadMem(4 bytes @ 0xE0001000)
T4C80 000:474.957   CPU_WriteMem(4 bytes @ 0xE0001000)
T4C80 000:477.229 - 2.533ms
T4C80 000:477.240 JLINK_IsHalted()
T4C80 000:479.133   CPU_ReadMem(2 bytes @ 0x20000000)
T4C80 000:479.436 - 2.201ms returns TRUE
T4C80 000:479.448 JLINK_ReadReg(R15 (PC))
T4C80 000:479.455 - 0.009ms returns 0x20000000
T4C80 000:479.462 JLINK_ClrBPEx(BPHandle = 0x00000003)
T4C80 000:479.467 - 0.008ms returns 0x00
T4C80 000:479.474 JLINK_ReadReg(R0)
T4C80 000:479.479 - 0.007ms returns 0x00000000
T4C80 000:486.037 JLINK_WriteMem(0x20000000, 0x0170 Bytes, ...)
T4C80 000:486.050   Data:  00 BE 0A E0 0D 78 2D 06 68 40 08 24 40 00 00 D3 ...
T4C80 000:486.068   CPU_WriteMem(368 bytes @ 0x20000000)
T4C80 000:487.784 - 1.753ms returns 0x170
T4C80 000:487.815 JLINK_WriteReg(R0, 0x08000000)
T4C80 000:487.823 - 0.011ms returns 0x00
T4C80 000:487.830 JLINK_WriteReg(R1, 0x00B71B00)
T4C80 000:487.835 - 0.007ms returns 0x00
T4C80 000:487.842 JLINK_WriteReg(R2, 0x00000002)
T4C80 000:487.847 - 0.007ms returns 0x00
T4C80 000:487.853 JLINK_WriteReg(R3, 0x00000000)
T4C80 000:487.858 - 0.007ms returns 0x00
T4C80 000:487.864 JLINK_WriteReg(R4, 0x00000000)
T4C80 000:487.869 - 0.007ms returns 0x00
T4C80 000:487.875 JLINK_WriteReg(R5, 0x00000000)
T4C80 000:487.880 - 0.007ms returns 0x00
T4C80 000:487.886 JLINK_WriteReg(R6, 0x00000000)
T4C80 000:487.891 - 0.007ms returns 0x00
T4C80 000:487.897 JLINK_WriteReg(R7, 0x00000000)
T4C80 000:487.902 - 0.007ms returns 0x00
T4C80 000:487.909 JLINK_WriteReg(R8, 0x00000000)
T4C80 000:487.914 - 0.007ms returns 0x00
T4C80 000:487.920 JLINK_WriteReg(R9, 0x2000016C)
T4C80 000:487.925 - 0.007ms returns 0x00
T4C80 000:487.931 JLINK_WriteReg(R10, 0x00000000)
T4C80 000:487.936 - 0.007ms returns 0x00
T4C80 000:487.942 JLINK_WriteReg(R11, 0x00000000)
T4C80 000:487.947 - 0.007ms returns 0x00
T4C80 000:487.953 JLINK_WriteReg(R12, 0x00000000)
T4C80 000:487.959 - 0.007ms returns 0x00
T4C80 000:487.965 JLINK_WriteReg(R13 (SP), 0x20001000)
T4C80 000:487.970 - 0.008ms returns 0x00
T4C80 000:487.977 JLINK_WriteReg(R14, 0x20000001)
T4C80 000:487.982 - 0.007ms returns 0x00
T4C80 000:487.988 JLINK_WriteReg(R15 (PC), 0x20000038)
T4C80 000:487.993 - 0.007ms returns 0x00
T4C80 000:487.999 JLINK_WriteReg(XPSR, 0x01000000)
T4C80 000:488.004 - 0.007ms returns 0x00
T4C80 000:488.011 JLINK_WriteReg(MSP, 0x20001000)
T4C80 000:488.016 - 0.007ms returns 0x00
T4C80 000:488.022 JLINK_WriteReg(PSP, 0x20001000)
T4C80 000:488.027 - 0.007ms returns 0x00
T4C80 000:488.033 JLINK_WriteReg(CFBP, 0x00000000)
T4C80 000:488.038 - 0.007ms returns 0x00
T4C80 000:488.045   JLINK_SetBPEx(Addr = 0x20000000, Type = 0xFFFFFFF2)
T4C80 000:488.055   CPU_ReadMem(2 bytes @ 0x20000000)
T4C80 000:488.334 - 0.295ms returns 0x00000004
T4C80 000:488.346 JLINK_Go()
T4C80 000:488.354   CPU_WriteMem(2 bytes @ 0x20000000)
T4C80 000:488.631   CPU_ReadMem(4 bytes @ 0xE0001000)
T4C80 000:488.894   CPU_WriteMem(4 bytes @ 0xE0001000)
T4C80 000:491.023 - 2.683ms
T4C80 000:491.035 JLINK_IsHalted()
T4C80 000:492.919   CPU_ReadMem(2 bytes @ 0x20000000)
T4C80 000:493.169 - 2.139ms returns TRUE
T4C80 000:493.181 JLINK_ReadReg(R15 (PC))
T4C80 000:493.188 - 0.009ms returns 0x20000000
T4C80 000:493.194 JLINK_ClrBPEx(BPHandle = 0x00000004)
T4C80 000:493.200 - 0.007ms returns 0x00
T4C80 000:493.206 JLINK_ReadReg(R0)
T4C80 000:493.211 - 0.007ms returns 0x00000000
T4C80 000:493.434 JLINK_WriteMem(0x20000170, 0x0290 Bytes, ...)
T4C80 000:493.443   Data:  C0 0F 00 20 D9 00 00 08 FF 00 00 08 45 0D 00 08 ...
T4C80 000:493.455   CPU_WriteMem(656 bytes @ 0x20000170)
T4C80 000:496.052 - 2.623ms returns 0x290
T4C80 000:496.064 JLINK_WriteMem(0x20000400, 0x0170 Bytes, ...)
T4C80 000:496.070   Data:  10 43 01 D4 40 00 49 1E C2 B2 0C 06 C0 09 20 18 ...
T4C80 000:496.082   CPU_WriteMem(368 bytes @ 0x20000400)
T4C80 000:497.769 - 1.710ms returns 0x170
T4C80 000:497.783 JLINK_WriteReg(R0, 0x08000000)
T4C80 000:497.791 - 0.010ms returns 0x00
T4C80 000:497.797 JLINK_WriteReg(R1, 0x00000400)
T4C80 000:497.803 - 0.007ms returns 0x00
T4C80 000:497.809 JLINK_WriteReg(R2, 0x20000170)
T4C80 000:497.814 - 0.007ms returns 0x00
T4C80 000:497.820 JLINK_WriteReg(R3, 0x00000000)
T4C80 000:497.825 - 0.007ms returns 0x00
T4C80 000:497.831 JLINK_WriteReg(R4, 0x00000000)
T4C80 000:497.836 - 0.007ms returns 0x00
T4C80 000:497.843 JLINK_WriteReg(R5, 0x00000000)
T4C80 000:497.848 - 0.007ms returns 0x00
T4C80 000:497.854 JLINK_WriteReg(R6, 0x00000000)
T4C80 000:497.859 - 0.007ms returns 0x00
T4C80 000:497.865 JLINK_WriteReg(R7, 0x00000000)
T4C80 000:497.870 - 0.007ms returns 0x00
T4C80 000:497.876 JLINK_WriteReg(R8, 0x00000000)
T4C80 000:497.881 - 0.007ms returns 0x00
T4C80 000:497.887 JLINK_WriteReg(R9, 0x2000016C)
T4C80 000:497.892 - 0.007ms returns 0x00
T4C80 000:497.898 JLINK_WriteReg(R10, 0x00000000)
T4C80 000:497.903 - 0.007ms returns 0x00
T4C80 000:497.910 JLINK_WriteReg(R11, 0x00000000)
T4C80 000:497.915 - 0.007ms returns 0x00
T4C80 000:497.921 JLINK_WriteReg(R12, 0x00000000)
T4C80 000:497.926 - 0.007ms returns 0x00
T4C80 000:497.932 JLINK_WriteReg(R13 (SP), 0x20001000)
T4C80 000:497.938 - 0.008ms returns 0x00
T4C80 000:497.944 JLINK_WriteReg(R14, 0x20000001)
T4C80 000:497.949 - 0.007ms returns 0x00
T4C80 000:497.955 JLINK_WriteReg(R15 (PC), 0x200000FA)
T4C80 000:497.960 - 0.007ms returns 0x00
T4C80 000:497.966 JLINK_WriteReg(XPSR, 0x01000000)
T4C80 000:497.971 - 0.007ms returns 0x00
T4C80 000:497.977 JLINK_WriteReg(MSP, 0x20001000)
T4C80 000:497.982 - 0.007ms returns 0x00
T4C80 000:497.989 JLINK_WriteReg(PSP, 0x20001000)
T4C80 000:497.994 - 0.007ms returns 0x00
T4C80 000:498.000 JLINK_WriteReg(CFBP, 0x00000000)
T4C80 000:498.005 - 0.007ms returns 0x00
T4C80 000:498.012   JLINK_SetBPEx(Addr = 0x20000000, Type = 0xFFFFFFF2)
T4C80 000:498.019 - 0.010ms returns 0x00000005
T4C80 000:498.026 JLINK_Go()
T4C80 000:498.035   CPU_ReadMem(4 bytes @ 0xE0001000)
T4C80 000:498.303   CPU_WriteMem(4 bytes @ 0xE0001000)
T4C80 000:500.390 - 2.371ms
T4C80 000:500.405 JLINK_IsHalted()
T4C80 000:500.614 - 0.213ms returns FALSE
T4C80 000:507.154 JLINK_IsHalted()
T4C80 000:507.451 - 0.303ms returns FALSE
T4C80 000:510.212 JLINK_IsHalted()
T4C80 000:510.724 - 0.540ms returns FALSE
T4C80 000:512.211 JLINK_IsHalted()
T4C80 000:512.714 - 0.531ms returns FALSE
T4C80 000:514.201 JLINK_IsHalted()
T4C80 000:514.672 - 0.499ms returns FALSE
T4C80 000:516.170 JLINK_IsHalted()
T4C80 000:516.630 - 0.488ms returns FALSE
T4C80 000:518.191 JLINK_IsHalted()
T4C80 000:518.628 - 0.466ms returns FALSE
T4C80 000:533.191 JLINK_IsHalted()
T4C80 000:535.114   CPU_ReadMem(2 bytes @ 0x20000000)
T4C80 000:535.433 - 2.246ms returns TRUE
T4C80 000:535.444 JLINK_ReadReg(R15 (PC))
T4C80 000:535.451 - 0.012ms returns 0x20000000
T4C80 000:535.462 JLINK_ClrBPEx(BPHandle = 0x00000005)
T4C80 000:535.468 - 0.008ms returns 0x00
T4C80 000:535.475 JLINK_ReadReg(R0)
T4C80 000:535.480 - 0.007ms returns 0x00000000
T4C80 000:535.939 JLINK_WriteMem(0x20000170, 0x0290 Bytes, ...)
T4C80 000:535.948   Data:  10 BD 00 00 FF 03 00 00 CD FB FF FF C2 0F D2 07 ...
T4C80 000:535.961   CPU_WriteMem(656 bytes @ 0x20000170)
T4C80 000:538.739 - 2.828ms returns 0x290
T4C80 000:538.772 JLINK_WriteMem(0x20000400, 0x0170 Bytes, ...)
T4C80 000:538.778   Data:  16 43 44 D0 04 9A 00 2A 2D D0 02 9A 01 2A 03 9A ...
T4C80 000:538.789   CPU_WriteMem(368 bytes @ 0x20000400)
T4C80 000:540.492 - 1.724ms returns 0x170
T4C80 000:540.505 JLINK_WriteReg(R0, 0x08000400)
T4C80 000:540.512 - 0.009ms returns 0x00
T4C80 000:540.518 JLINK_WriteReg(R1, 0x00000400)
T4C80 000:540.524 - 0.007ms returns 0x00
T4C80 000:540.530 JLINK_WriteReg(R2, 0x20000170)
T4C80 000:540.535 - 0.007ms returns 0x00
T4C80 000:540.541 JLINK_WriteReg(R3, 0x00000000)
T4C80 000:540.546 - 0.007ms returns 0x00
T4C80 000:540.552 JLINK_WriteReg(R4, 0x00000000)
T4C80 000:540.557 - 0.007ms returns 0x00
T4C80 000:540.563 JLINK_WriteReg(R5, 0x00000000)
T4C80 000:540.568 - 0.007ms returns 0x00
T4C80 000:540.574 JLINK_WriteReg(R6, 0x00000000)
T4C80 000:540.579 - 0.007ms returns 0x00
T4C80 000:540.585 JLINK_WriteReg(R7, 0x00000000)
T4C80 000:540.590 - 0.007ms returns 0x00
T4C80 000:540.596 JLINK_WriteReg(R8, 0x00000000)
T4C80 000:540.602 - 0.007ms returns 0x00
T4C80 000:540.608 JLINK_WriteReg(R9, 0x2000016C)
T4C80 000:540.613 - 0.007ms returns 0x00
T4C80 000:540.619 JLINK_WriteReg(R10, 0x00000000)
T4C80 000:540.624 - 0.007ms returns 0x00
T4C80 000:540.630 JLINK_WriteReg(R11, 0x00000000)
T4C80 000:540.635 - 0.007ms returns 0x00
T4C80 000:540.641 JLINK_WriteReg(R12, 0x00000000)
T4C80 000:540.646 - 0.007ms returns 0x00
T4C80 000:540.653 JLINK_WriteReg(R13 (SP), 0x20001000)
T4C80 000:540.658 - 0.007ms returns 0x00
T4C80 000:540.664 JLINK_WriteReg(R14, 0x20000001)
T4C80 000:540.669 - 0.007ms returns 0x00
T4C80 000:540.675 JLINK_WriteReg(R15 (PC), 0x200000FA)
T4C80 000:540.681 - 0.007ms returns 0x00
T4C80 000:540.687 JLINK_WriteReg(XPSR, 0x01000000)
T4C80 000:540.692 - 0.007ms returns 0x00
T4C80 000:540.698 JLINK_WriteReg(MSP, 0x20001000)
T4C80 000:540.703 - 0.007ms returns 0x00
T4C80 000:540.709 JLINK_WriteReg(PSP, 0x20001000)
T4C80 000:540.714 - 0.007ms returns 0x00
T4C80 000:540.720 JLINK_WriteReg(CFBP, 0x00000000)
T4C80 000:540.725 - 0.007ms returns 0x00
T4C80 000:540.732   JLINK_SetBPEx(Addr = 0x20000000, Type = 0xFFFFFFF2)
T4C80 000:540.740 - 0.010ms returns 0x00000006
T4C80 000:540.746 JLINK_Go()
T4C80 000:540.756   CPU_ReadMem(4 bytes @ 0xE0001000)
T4C80 000:541.033   CPU_WriteMem(4 bytes @ 0xE0001000)
T4C80 000:543.229 - 2.487ms
T4C80 000:543.239 JLINK_IsHalted()
T4C80 000:543.550 - 0.315ms returns FALSE
T4C80 000:546.113 JLINK_IsHalted()
T4C80 000:546.401 - 0.293ms returns FALSE
T4C80 000:548.070 JLINK_IsHalted()
T4C80 000:548.450 - 0.385ms returns FALSE
T4C80 000:550.044 JLINK_IsHalted()
T4C80 000:550.396 - 0.358ms returns FALSE
T4C80 000:552.160 JLINK_IsHalted()
T4C80 000:552.434 - 0.279ms returns FALSE
T4C80 000:554.082 JLINK_IsHalted()
T4C80 000:554.424 - 0.347ms returns FALSE
T4C80 000:556.054 JLINK_IsHalted()
T4C80 000:556.302 - 0.254ms returns FALSE
T4C80 000:558.063 JLINK_IsHalted()
T4C80 000:558.432 - 0.374ms returns FALSE
T4C80 000:560.049 JLINK_IsHalted()
T4C80 000:560.343 - 0.300ms returns FALSE
T4C80 000:562.072 JLINK_IsHalted()
T4C80 000:562.512 - 0.445ms returns FALSE
T4C80 000:564.032 JLINK_IsHalted()
T4C80 000:564.276 - 0.249ms returns FALSE
T4C80 000:567.027 JLINK_IsHalted()
T4C80 000:567.345 - 0.325ms returns FALSE
T4C80 000:569.023 JLINK_IsHalted()
T4C80 000:569.483 - 0.467ms returns FALSE
T4C80 000:571.092 JLINK_IsHalted()
T4C80 000:571.506 - 0.419ms returns FALSE
T4C80 000:573.105 JLINK_IsHalted()
T4C80 000:575.136   CPU_ReadMem(2 bytes @ 0x20000000)
T4C80 000:575.502 - 2.403ms returns TRUE
T4C80 000:575.516 JLINK_ReadReg(R15 (PC))
T4C80 000:575.525 - 0.011ms returns 0x20000000
T4C80 000:575.532 JLINK_ClrBPEx(BPHandle = 0x00000006)
T4C80 000:575.537 - 0.008ms returns 0x00
T4C80 000:575.544 JLINK_ReadReg(R0)
T4C80 000:575.549 - 0.007ms returns 0x00000000
T4C80 000:575.953 JLINK_WriteMem(0x20000170, 0x0290 Bytes, ...)
T4C80 000:575.961   Data:  10 BD 00 00 10 B5 00 29 04 DB 01 24 E4 07 40 42 ...
T4C80 000:575.974   CPU_WriteMem(656 bytes @ 0x20000170)
T4C80 000:578.629 - 2.682ms returns 0x290
T4C80 000:578.643 JLINK_WriteMem(0x20000400, 0x0170 Bytes, ...)
T4C80 000:578.649   Data:  FE FF 00 00 01 68 20 4A 11 40 01 60 00 21 01 60 ...
T4C80 000:578.661   CPU_WriteMem(368 bytes @ 0x20000400)
T4C80 000:580.331 - 1.693ms returns 0x170
T4C80 000:580.347 JLINK_WriteReg(R0, 0x08000800)
T4C80 000:580.355 - 0.010ms returns 0x00
T4C80 000:580.361 JLINK_WriteReg(R1, 0x00000400)
T4C80 000:580.367 - 0.007ms returns 0x00
T4C80 000:580.373 JLINK_WriteReg(R2, 0x20000170)
T4C80 000:580.378 - 0.007ms returns 0x00
T4C80 000:580.385 JLINK_WriteReg(R3, 0x00000000)
T4C80 000:580.390 - 0.007ms returns 0x00
T4C80 000:580.398 JLINK_WriteReg(R4, 0x00000000)
T4C80 000:580.403 - 0.007ms returns 0x00
T4C80 000:580.409 JLINK_WriteReg(R5, 0x00000000)
T4C80 000:580.414 - 0.007ms returns 0x00
T4C80 000:580.421 JLINK_WriteReg(R6, 0x00000000)
T4C80 000:580.426 - 0.007ms returns 0x00
T4C80 000:580.432 JLINK_WriteReg(R7, 0x00000000)
T4C80 000:580.437 - 0.007ms returns 0x00
T4C80 000:580.444 JLINK_WriteReg(R8, 0x00000000)
T4C80 000:580.449 - 0.007ms returns 0x00
T4C80 000:580.455 JLINK_WriteReg(R9, 0x2000016C)
T4C80 000:580.460 - 0.007ms returns 0x00
T4C80 000:580.467 JLINK_WriteReg(R10, 0x00000000)
T4C80 000:580.472 - 0.007ms returns 0x00
T4C80 000:580.480 JLINK_WriteReg(R11, 0x00000000)
T4C80 000:580.485 - 0.007ms returns 0x00
T4C80 000:580.491 JLINK_WriteReg(R12, 0x00000000)
T4C80 000:580.496 - 0.007ms returns 0x00
T4C80 000:580.503 JLINK_WriteReg(R13 (SP), 0x20001000)
T4C80 000:580.509 - 0.008ms returns 0x00
T4C80 000:580.515 JLINK_WriteReg(R14, 0x20000001)
T4C80 000:580.520 - 0.007ms returns 0x00
T4C80 000:580.526 JLINK_WriteReg(R15 (PC), 0x200000FA)
T4C80 000:580.532 - 0.007ms returns 0x00
T4C80 000:580.538 JLINK_WriteReg(XPSR, 0x01000000)
T4C80 000:580.543 - 0.007ms returns 0x00
T4C80 000:580.550 JLINK_WriteReg(MSP, 0x20001000)
T4C80 000:580.555 - 0.007ms returns 0x00
T4C80 000:580.562 JLINK_WriteReg(PSP, 0x20001000)
T4C80 000:580.567 - 0.007ms returns 0x00
T4C80 000:580.575 JLINK_WriteReg(CFBP, 0x00000000)
T4C80 000:580.580 - 0.007ms returns 0x00
T4C80 000:580.587   JLINK_SetBPEx(Addr = 0x20000000, Type = 0xFFFFFFF2)
T4C80 000:580.595 - 0.010ms returns 0x00000007
T4C80 000:580.603 JLINK_Go()
T4C80 000:580.613   CPU_ReadMem(4 bytes @ 0xE0001000)
T4C80 000:580.931   CPU_WriteMem(4 bytes @ 0xE0001000)
T4C80 000:583.149 - 2.551ms
T4C80 000:583.161 JLINK_IsHalted()
T4C80 000:583.423 - 0.267ms returns FALSE
T4C80 000:585.018 JLINK_IsHalted()
T4C80 000:585.310 - 0.297ms returns FALSE
T4C80 000:587.096 JLINK_IsHalted()
T4C80 000:587.505 - 0.414ms returns FALSE
T4C80 000:589.314 JLINK_IsHalted()
T4C80 000:589.671 - 0.362ms returns FALSE
T4C80 000:591.314 JLINK_IsHalted()
T4C80 000:591.637 - 0.328ms returns FALSE
T4C80 000:593.293 JLINK_IsHalted()
T4C80 000:593.638 - 0.350ms returns FALSE
T4C80 000:595.207 JLINK_IsHalted()
T4C80 000:595.607 - 0.405ms returns FALSE
T4C80 000:598.169 JLINK_IsHalted()
T4C80 000:598.556 - 0.391ms returns FALSE
T4C80 000:600.160 JLINK_IsHalted()
T4C80 000:600.584 - 0.431ms returns FALSE
T4C80 000:602.162 JLINK_IsHalted()
T4C80 000:602.556 - 0.399ms returns FALSE
T4C80 000:604.153 JLINK_IsHalted()
T4C80 000:604.556 - 0.407ms returns FALSE
T4C80 000:606.122 JLINK_IsHalted()
T4C80 000:606.429 - 0.312ms returns FALSE
T4C80 000:608.247 JLINK_IsHalted()
T4C80 000:608.579 - 0.337ms returns FALSE
T4C80 000:610.244 JLINK_IsHalted()
T4C80 000:610.586 - 0.347ms returns FALSE
T4C80 000:612.228 JLINK_IsHalted()
T4C80 000:612.555 - 0.332ms returns FALSE
T4C80 000:614.140 JLINK_IsHalted()
T4C80 000:616.095   CPU_ReadMem(2 bytes @ 0x20000000)
T4C80 000:616.465 - 2.330ms returns TRUE
T4C80 000:616.477 JLINK_ReadReg(R15 (PC))
T4C80 000:616.484 - 0.010ms returns 0x20000000
T4C80 000:616.491 JLINK_ClrBPEx(BPHandle = 0x00000007)
T4C80 000:616.496 - 0.008ms returns 0x00
T4C80 000:616.503 JLINK_ReadReg(R0)
T4C80 000:616.508 - 0.007ms returns 0x00000000
T4C80 000:616.924 JLINK_WriteMem(0x20000170, 0x0290 Bytes, ...)
T4C80 000:616.933   Data:  02 48 01 69 80 22 11 43 01 61 70 47 00 20 02 40 ...
T4C80 000:616.945   CPU_WriteMem(656 bytes @ 0x20000170)
T4C80 000:619.751 - 2.836ms returns 0x290
T4C80 000:619.768 JLINK_WriteMem(0x20000400, 0x0170 Bytes, ...)
T4C80 000:619.774   Data:  07 46 FF F7 D6 F9 06 46 28 46 E1 68 FF F7 D1 F9 ...
T4C80 000:619.789   CPU_WriteMem(368 bytes @ 0x20000400)
T4C80 000:621.512 - 1.751ms returns 0x170
T4C80 000:621.529 JLINK_WriteReg(R0, 0x08000C00)
T4C80 000:621.537 - 0.011ms returns 0x00
T4C80 000:621.544 JLINK_WriteReg(R1, 0x00000400)
T4C80 000:621.550 - 0.008ms returns 0x00
T4C80 000:621.557 JLINK_WriteReg(R2, 0x20000170)
T4C80 000:621.562 - 0.008ms returns 0x00
T4C80 000:621.569 JLINK_WriteReg(R3, 0x00000000)
T4C80 000:621.575 - 0.008ms returns 0x00
T4C80 000:621.581 JLINK_WriteReg(R4, 0x00000000)
T4C80 000:621.587 - 0.008ms returns 0x00
T4C80 000:621.593 JLINK_WriteReg(R5, 0x00000000)
T4C80 000:621.599 - 0.008ms returns 0x00
T4C80 000:621.605 JLINK_WriteReg(R6, 0x00000000)
T4C80 000:621.611 - 0.008ms returns 0x00
T4C80 000:621.618 JLINK_WriteReg(R7, 0x00000000)
T4C80 000:621.623 - 0.008ms returns 0x00
T4C80 000:621.630 JLINK_WriteReg(R8, 0x00000000)
T4C80 000:621.635 - 0.008ms returns 0x00
T4C80 000:621.642 JLINK_WriteReg(R9, 0x2000016C)
T4C80 000:621.647 - 0.008ms returns 0x00
T4C80 000:621.654 JLINK_WriteReg(R10, 0x00000000)
T4C80 000:621.660 - 0.008ms returns 0x00
T4C80 000:621.666 JLINK_WriteReg(R11, 0x00000000)
T4C80 000:621.672 - 0.008ms returns 0x00
T4C80 000:621.678 JLINK_WriteReg(R12, 0x00000000)
T4C80 000:621.684 - 0.008ms returns 0x00
T4C80 000:621.691 JLINK_WriteReg(R13 (SP), 0x20001000)
T4C80 000:621.697 - 0.008ms returns 0x00
T4C80 000:621.704 JLINK_WriteReg(R14, 0x20000001)
T4C80 000:621.709 - 0.008ms returns 0x00
T4C80 000:621.716 JLINK_WriteReg(R15 (PC), 0x200000FA)
T4C80 000:621.722 - 0.008ms returns 0x00
T4C80 000:621.728 JLINK_WriteReg(XPSR, 0x01000000)
T4C80 000:621.734 - 0.008ms returns 0x00
T4C80 000:621.740 JLINK_WriteReg(MSP, 0x20001000)
T4C80 000:621.746 - 0.008ms returns 0x00
T4C80 000:621.753 JLINK_WriteReg(PSP, 0x20001000)
T4C80 000:621.758 - 0.008ms returns 0x00
T4C80 000:621.765 JLINK_WriteReg(CFBP, 0x00000000)
T4C80 000:621.770 - 0.008ms returns 0x00
T4C80 000:621.778   JLINK_SetBPEx(Addr = 0x20000000, Type = 0xFFFFFFF2)
T4C80 000:621.786 - 0.011ms returns 0x00000008
T4C80 000:621.793 JLINK_Go()
T4C80 000:621.804   CPU_ReadMem(4 bytes @ 0xE0001000)
T4C80 000:622.161   CPU_WriteMem(4 bytes @ 0xE0001000)
T4C80 000:624.446 - 2.660ms
T4C80 000:624.460 JLINK_IsHalted()
T4C80 000:624.721 - 0.268ms returns FALSE
T4C80 000:626.231 JLINK_IsHalted()
T4C80 000:626.550 - 0.325ms returns FALSE
T4C80 000:628.320 JLINK_IsHalted()
T4C80 000:628.672 - 0.358ms returns FALSE
T4C80 000:630.227 JLINK_IsHalted()
T4C80 000:630.487 - 0.266ms returns FALSE
T4C80 000:632.215 JLINK_IsHalted()
T4C80 000:632.451 - 0.242ms returns FALSE
T4C80 000:634.237 JLINK_IsHalted()
T4C80 000:634.553 - 0.321ms returns FALSE
T4C80 000:636.204 JLINK_IsHalted()
T4C80 000:636.426 - 0.228ms returns FALSE
T4C80 000:638.295 JLINK_IsHalted()
T4C80 000:638.553 - 0.263ms returns FALSE
T4C80 000:640.282 JLINK_IsHalted()
T4C80 000:640.552 - 0.275ms returns FALSE
T4C80 000:642.289 JLINK_IsHalted()
T4C80 000:642.563 - 0.279ms returns FALSE
T4C80 000:644.275 JLINK_IsHalted()
T4C80 000:644.543 - 0.273ms returns FALSE
T4C80 000:646.152 JLINK_IsHalted()
T4C80 000:646.422 - 0.275ms returns FALSE
T4C80 000:648.262 JLINK_IsHalted()
T4C80 000:648.544 - 0.288ms returns FALSE
T4C80 000:650.258 JLINK_IsHalted()
T4C80 000:650.562 - 0.309ms returns FALSE
T4C80 000:652.251 JLINK_IsHalted()
T4C80 000:652.542 - 0.296ms returns FALSE
T4C80 000:654.253 JLINK_IsHalted()
T4C80 000:656.074   CPU_ReadMem(2 bytes @ 0x20000000)
T4C80 000:656.430 - 2.182ms returns TRUE
T4C80 000:656.442 JLINK_ReadReg(R15 (PC))
T4C80 000:656.449 - 0.010ms returns 0x20000000
T4C80 000:656.456 JLINK_ClrBPEx(BPHandle = 0x00000008)
T4C80 000:656.462 - 0.008ms returns 0x00
T4C80 000:656.468 JLINK_ReadReg(R0)
T4C80 000:656.473 - 0.007ms returns 0x00000000
T4C80 000:656.889 JLINK_WriteMem(0x20000170, 0x0290 Bytes, ...)
T4C80 000:656.897   Data:  00 2D 29 DD 31 46 01 98 FF F7 58 F9 05 46 01 21 ...
T4C80 000:656.910   CPU_WriteMem(656 bytes @ 0x20000170)
T4C80 000:659.603 - 2.720ms returns 0x290
T4C80 000:659.617 JLINK_WriteMem(0x20000400, 0x0170 Bytes, ...)
T4C80 000:659.623   Data:  81 43 D1 61 70 47 00 00 00 10 02 40 04 4A 00 29 ...
T4C80 000:659.634   CPU_WriteMem(368 bytes @ 0x20000400)
T4C80 000:661.307 - 1.695ms returns 0x170
T4C80 000:661.323 JLINK_WriteReg(R0, 0x08001000)
T4C80 000:661.330 - 0.010ms returns 0x00
T4C80 000:661.337 JLINK_WriteReg(R1, 0x00000400)
T4C80 000:661.342 - 0.007ms returns 0x00
T4C80 000:661.348 JLINK_WriteReg(R2, 0x20000170)
T4C80 000:661.353 - 0.007ms returns 0x00
T4C80 000:661.361 JLINK_WriteReg(R3, 0x00000000)
T4C80 000:661.366 - 0.007ms returns 0x00
T4C80 000:661.424 JLINK_WriteReg(R4, 0x00000000)
T4C80 000:661.435 - 0.014ms returns 0x00
T4C80 000:661.442 JLINK_WriteReg(R5, 0x00000000)
T4C80 000:661.448 - 0.007ms returns 0x00
T4C80 000:661.454 JLINK_WriteReg(R6, 0x00000000)
T4C80 000:661.459 - 0.007ms returns 0x00
T4C80 000:661.465 JLINK_WriteReg(R7, 0x00000000)
T4C80 000:661.470 - 0.007ms returns 0x00
T4C80 000:661.477 JLINK_WriteReg(R8, 0x00000000)
T4C80 000:661.482 - 0.007ms returns 0x00
T4C80 000:661.488 JLINK_WriteReg(R9, 0x2000016C)
T4C80 000:661.493 - 0.007ms returns 0x00
T4C80 000:661.499 JLINK_WriteReg(R10, 0x00000000)
T4C80 000:661.504 - 0.007ms returns 0x00
T4C80 000:661.510 JLINK_WriteReg(R11, 0x00000000)
T4C80 000:661.515 - 0.007ms returns 0x00
T4C80 000:661.522 JLINK_WriteReg(R12, 0x00000000)
T4C80 000:661.527 - 0.007ms returns 0x00
T4C80 000:661.533 JLINK_WriteReg(R13 (SP), 0x20001000)
T4C80 000:661.538 - 0.008ms returns 0x00
T4C80 000:661.544 JLINK_WriteReg(R14, 0x20000001)
T4C80 000:661.550 - 0.007ms returns 0x00
T4C80 000:661.556 JLINK_WriteReg(R15 (PC), 0x200000FA)
T4C80 000:661.561 - 0.007ms returns 0x00
T4C80 000:661.567 JLINK_WriteReg(XPSR, 0x01000000)
T4C80 000:661.572 - 0.007ms returns 0x00
T4C80 000:661.578 JLINK_WriteReg(MSP, 0x20001000)
T4C80 000:661.583 - 0.007ms returns 0x00
T4C80 000:661.590 JLINK_WriteReg(PSP, 0x20001000)
T4C80 000:661.595 - 0.007ms returns 0x00
T4C80 000:661.601 JLINK_WriteReg(CFBP, 0x00000000)
T4C80 000:661.606 - 0.007ms returns 0x00
T4C80 000:661.613   JLINK_SetBPEx(Addr = 0x20000000, Type = 0xFFFFFFF2)
T4C80 000:661.621 - 0.011ms returns 0x00000009
T4C80 000:661.627 JLINK_Go()
T4C80 000:661.637   CPU_ReadMem(4 bytes @ 0xE0001000)
T4C80 000:661.924   CPU_WriteMem(4 bytes @ 0xE0001000)
T4C80 000:664.118 - 2.496ms
T4C80 000:664.130 JLINK_IsHalted()
T4C80 000:664.396 - 0.271ms returns FALSE
T4C80 000:666.127 JLINK_IsHalted()
T4C80 000:666.402 - 0.281ms returns FALSE
T4C80 000:668.226 JLINK_IsHalted()
T4C80 000:668.450 - 0.230ms returns FALSE
T4C80 000:670.210 JLINK_IsHalted()
T4C80 000:670.554 - 0.350ms returns FALSE
T4C80 000:672.200 JLINK_IsHalted()
T4C80 000:672.551 - 0.357ms returns FALSE
T4C80 000:674.195 JLINK_IsHalted()
T4C80 000:674.451 - 0.261ms returns FALSE
T4C80 000:676.119 JLINK_IsHalted()
T4C80 000:676.401 - 0.287ms returns FALSE
T4C80 000:678.111 JLINK_IsHalted()
T4C80 000:678.418 - 0.313ms returns FALSE
T4C80 000:681.086 JLINK_IsHalted()
T4C80 000:681.374 - 0.293ms returns FALSE
T4C80 000:683.151 JLINK_IsHalted()
T4C80 000:683.421 - 0.275ms returns FALSE
T4C80 000:685.076 JLINK_IsHalted()
T4C80 000:685.303 - 0.232ms returns FALSE
T4C80 000:687.171 JLINK_IsHalted()
T4C80 000:687.428 - 0.264ms returns FALSE
T4C80 000:689.317 JLINK_IsHalted()
T4C80 000:689.548 - 0.236ms returns FALSE
T4C80 000:691.306 JLINK_IsHalted()
T4C80 000:691.653 - 0.352ms returns FALSE
T4C80 000:693.287 JLINK_IsHalted()
T4C80 000:693.650 - 0.369ms returns FALSE
T4C80 000:695.300 JLINK_IsHalted()
T4C80 000:697.281   CPU_ReadMem(2 bytes @ 0x20000000)
T4C80 000:697.596 - 2.303ms returns TRUE
T4C80 000:697.611 JLINK_ReadReg(R15 (PC))
T4C80 000:697.619 - 0.011ms returns 0x20000000
T4C80 000:697.626 JLINK_ClrBPEx(BPHandle = 0x00000009)
T4C80 000:697.632 - 0.008ms returns 0x00
T4C80 000:697.639 JLINK_ReadReg(R0)
T4C80 000:697.645 - 0.008ms returns 0x00000000
T4C80 000:698.090 JLINK_WriteMem(0x20000170, 0x0290 Bytes, ...)
T4C80 000:698.100   Data:  00 10 02 40 0C B5 00 20 00 90 01 90 13 49 11 20 ...
T4C80 000:698.113   CPU_WriteMem(656 bytes @ 0x20000170)
T4C80 000:700.838 - 2.754ms returns 0x290
T4C80 000:700.851 JLINK_WriteMem(0x20000400, 0x0170 Bytes, ...)
T4C80 000:700.858   Data:  30 BD 00 00 FF EF 00 00 FF 8C 00 00 FF DF 00 00 ...
T4C80 000:700.871   CPU_WriteMem(368 bytes @ 0x20000400)
T4C80 000:702.644 - 1.799ms returns 0x170
T4C80 000:702.660 JLINK_WriteReg(R0, 0x08001400)
T4C80 000:702.668 - 0.011ms returns 0x00
T4C80 000:702.675 JLINK_WriteReg(R1, 0x00000400)
T4C80 000:702.682 - 0.009ms returns 0x00
T4C80 000:702.689 JLINK_WriteReg(R2, 0x20000170)
T4C80 000:702.695 - 0.008ms returns 0x00
T4C80 000:702.702 JLINK_WriteReg(R3, 0x00000000)
T4C80 000:702.708 - 0.008ms returns 0x00
T4C80 000:702.715 JLINK_WriteReg(R4, 0x00000000)
T4C80 000:702.721 - 0.008ms returns 0x00
T4C80 000:702.728 JLINK_WriteReg(R5, 0x00000000)
T4C80 000:702.734 - 0.008ms returns 0x00
T4C80 000:702.742 JLINK_WriteReg(R6, 0x00000000)
T4C80 000:702.747 - 0.008ms returns 0x00
T4C80 000:702.755 JLINK_WriteReg(R7, 0x00000000)
T4C80 000:702.761 - 0.008ms returns 0x00
T4C80 000:702.768 JLINK_WriteReg(R8, 0x00000000)
T4C80 000:702.774 - 0.008ms returns 0x00
T4C80 000:702.781 JLINK_WriteReg(R9, 0x2000016C)
T4C80 000:702.787 - 0.008ms returns 0x00
T4C80 000:702.794 JLINK_WriteReg(R10, 0x00000000)
T4C80 000:702.800 - 0.008ms returns 0x00
T4C80 000:702.808 JLINK_WriteReg(R11, 0x00000000)
T4C80 000:702.814 - 0.008ms returns 0x00
T4C80 000:702.821 JLINK_WriteReg(R12, 0x00000000)
T4C80 000:702.827 - 0.008ms returns 0x00
T4C80 000:702.834 JLINK_WriteReg(R13 (SP), 0x20001000)
T4C80 000:702.841 - 0.009ms returns 0x00
T4C80 000:702.848 JLINK_WriteReg(R14, 0x20000001)
T4C80 000:702.854 - 0.008ms returns 0x00
T4C80 000:702.861 JLINK_WriteReg(R15 (PC), 0x200000FA)
T4C80 000:702.867 - 0.008ms returns 0x00
T4C80 000:702.874 JLINK_WriteReg(XPSR, 0x01000000)
T4C80 000:702.880 - 0.008ms returns 0x00
T4C80 000:702.888 JLINK_WriteReg(MSP, 0x20001000)
T4C80 000:702.894 - 0.008ms returns 0x00
T4C80 000:702.901 JLINK_WriteReg(PSP, 0x20001000)
T4C80 000:702.907 - 0.008ms returns 0x00
T4C80 000:702.914 JLINK_WriteReg(CFBP, 0x00000000)
T4C80 000:702.920 - 0.008ms returns 0x00
T4C80 000:702.928   JLINK_SetBPEx(Addr = 0x20000000, Type = 0xFFFFFFF2)
T4C80 000:702.937 - 0.012ms returns 0x0000000A
T4C80 000:702.945 JLINK_Go()
T4C80 000:702.956   CPU_ReadMem(4 bytes @ 0xE0001000)
T4C80 000:703.252   CPU_WriteMem(4 bytes @ 0xE0001000)
T4C80 000:705.507 - 2.568ms
T4C80 000:705.520 JLINK_IsHalted()
T4C80 000:705.809 - 0.295ms returns FALSE
T4C80 000:707.265 JLINK_IsHalted()
T4C80 000:707.583 - 0.323ms returns FALSE
T4C80 000:709.177 JLINK_IsHalted()
T4C80 000:709.483 - 0.311ms returns FALSE
T4C80 000:711.270 JLINK_IsHalted()
T4C80 000:711.574 - 0.309ms returns FALSE
T4C80 000:713.267 JLINK_IsHalted()
T4C80 000:713.736 - 0.474ms returns FALSE
T4C80 000:715.188 JLINK_IsHalted()
T4C80 000:715.453 - 0.272ms returns FALSE
T4C80 000:717.166 JLINK_IsHalted()
T4C80 000:717.417 - 0.257ms returns FALSE
T4C80 000:719.261 JLINK_IsHalted()
T4C80 000:719.545 - 0.289ms returns FALSE
T4C80 000:721.162 JLINK_IsHalted()
T4C80 000:721.461 - 0.305ms returns FALSE
T4C80 000:723.231 JLINK_IsHalted()
T4C80 000:723.583 - 0.359ms returns FALSE
T4C80 000:725.242 JLINK_IsHalted()
T4C80 000:725.557 - 0.320ms returns FALSE
T4C80 000:727.226 JLINK_IsHalted()
T4C80 000:727.583 - 0.363ms returns FALSE
T4C80 000:729.227 JLINK_IsHalted()
T4C80 000:729.554 - 0.333ms returns FALSE
T4C80 000:731.216 JLINK_IsHalted()
T4C80 000:731.508 - 0.297ms returns FALSE
T4C80 000:733.205 JLINK_IsHalted()
T4C80 000:733.483 - 0.284ms returns FALSE
T4C80 000:735.206 JLINK_IsHalted()
T4C80 000:737.135   CPU_ReadMem(2 bytes @ 0x20000000)
T4C80 000:737.459 - 2.259ms returns TRUE
T4C80 000:737.472 JLINK_ReadReg(R15 (PC))
T4C80 000:737.479 - 0.010ms returns 0x20000000
T4C80 000:737.486 JLINK_ClrBPEx(BPHandle = 0x0000000A)
T4C80 000:737.492 - 0.008ms returns 0x00
T4C80 000:737.498 JLINK_ReadReg(R0)
T4C80 000:737.503 - 0.007ms returns 0x00000000
T4C80 000:737.917 JLINK_WriteMem(0x20000170, 0x0290 Bytes, ...)
T4C80 000:737.925   Data:  28 30 03 90 17 48 04 90 10 20 05 90 80 20 08 90 ...
T4C80 000:737.938   CPU_WriteMem(656 bytes @ 0x20000170)
T4C80 000:740.551 - 2.641ms returns 0x290
T4C80 000:740.566 JLINK_WriteMem(0x20000400, 0x0170 Bytes, ...)
T4C80 000:740.572   Data:  0A 0E 01 D0 01 22 10 43 09 0E FF 29 01 D1 02 21 ...
T4C80 000:740.585   CPU_WriteMem(368 bytes @ 0x20000400)
T4C80 000:742.308 - 1.746ms returns 0x170
T4C80 000:742.374 JLINK_WriteReg(R0, 0x08001800)
T4C80 000:742.385 - 0.014ms returns 0x00
T4C80 000:742.392 JLINK_WriteReg(R1, 0x00000400)
T4C80 000:742.397 - 0.008ms returns 0x00
T4C80 000:742.404 JLINK_WriteReg(R2, 0x20000170)
T4C80 000:742.409 - 0.007ms returns 0x00
T4C80 000:742.415 JLINK_WriteReg(R3, 0x00000000)
T4C80 000:742.420 - 0.007ms returns 0x00
T4C80 000:742.426 JLINK_WriteReg(R4, 0x00000000)
T4C80 000:742.431 - 0.007ms returns 0x00
T4C80 000:742.437 JLINK_WriteReg(R5, 0x00000000)
T4C80 000:742.442 - 0.007ms returns 0x00
T4C80 000:742.448 JLINK_WriteReg(R6, 0x00000000)
T4C80 000:742.453 - 0.007ms returns 0x00
T4C80 000:742.460 JLINK_WriteReg(R7, 0x00000000)
T4C80 000:742.465 - 0.007ms returns 0x00
T4C80 000:742.471 JLINK_WriteReg(R8, 0x00000000)
T4C80 000:742.476 - 0.007ms returns 0x00
T4C80 000:742.482 JLINK_WriteReg(R9, 0x2000016C)
T4C80 000:742.487 - 0.007ms returns 0x00
T4C80 000:742.493 JLINK_WriteReg(R10, 0x00000000)
T4C80 000:742.498 - 0.007ms returns 0x00
T4C80 000:742.505 JLINK_WriteReg(R11, 0x00000000)
T4C80 000:742.510 - 0.007ms returns 0x00
T4C80 000:742.516 JLINK_WriteReg(R12, 0x00000000)
T4C80 000:742.521 - 0.007ms returns 0x00
T4C80 000:742.527 JLINK_WriteReg(R13 (SP), 0x20001000)
T4C80 000:742.533 - 0.008ms returns 0x00
T4C80 000:742.539 JLINK_WriteReg(R14, 0x20000001)
T4C80 000:742.544 - 0.007ms returns 0x00
T4C80 000:742.550 JLINK_WriteReg(R15 (PC), 0x200000FA)
T4C80 000:742.555 - 0.007ms returns 0x00
T4C80 000:742.561 JLINK_WriteReg(XPSR, 0x01000000)
T4C80 000:742.566 - 0.007ms returns 0x00
T4C80 000:742.572 JLINK_WriteReg(MSP, 0x20001000)
T4C80 000:742.578 - 0.007ms returns 0x00
T4C80 000:742.584 JLINK_WriteReg(PSP, 0x20001000)
T4C80 000:742.589 - 0.007ms returns 0x00
T4C80 000:742.595 JLINK_WriteReg(CFBP, 0x00000000)
T4C80 000:742.600 - 0.007ms returns 0x00
T4C80 000:742.607   JLINK_SetBPEx(Addr = 0x20000000, Type = 0xFFFFFFF2)
T4C80 000:742.615 - 0.011ms returns 0x0000000B
T4C80 000:742.621 JLINK_Go()
T4C80 000:742.632   CPU_ReadMem(4 bytes @ 0xE0001000)
T4C80 000:742.935   CPU_WriteMem(4 bytes @ 0xE0001000)
T4C80 000:745.133 - 2.517ms
T4C80 000:745.145 JLINK_IsHalted()
T4C80 000:745.426 - 0.287ms returns FALSE
T4C80 000:747.170 JLINK_IsHalted()
T4C80 000:747.452 - 0.287ms returns FALSE
T4C80 000:749.170 JLINK_IsHalted()
T4C80 000:749.451 - 0.287ms returns FALSE
T4C80 000:751.069 JLINK_IsHalted()
T4C80 000:751.335 - 0.271ms returns FALSE
T4C80 000:753.153 JLINK_IsHalted()
T4C80 000:753.442 - 0.295ms returns FALSE
T4C80 000:755.145 JLINK_IsHalted()
T4C80 000:755.426 - 0.287ms returns FALSE
T4C80 000:757.130 JLINK_IsHalted()
T4C80 000:757.426 - 0.302ms returns FALSE
T4C80 000:759.132 JLINK_IsHalted()
T4C80 000:759.427 - 0.301ms returns FALSE
T4C80 000:761.144 JLINK_IsHalted()
T4C80 000:761.433 - 0.294ms returns FALSE
T4C80 000:763.129 JLINK_IsHalted()
T4C80 000:763.434 - 0.311ms returns FALSE
T4C80 000:765.037 JLINK_IsHalted()
T4C80 000:765.434 - 0.403ms returns FALSE
T4C80 000:767.081 JLINK_IsHalted()
T4C80 000:767.436 - 0.361ms returns FALSE
T4C80 000:769.106 JLINK_IsHalted()
T4C80 000:769.436 - 0.335ms returns FALSE
T4C80 000:771.103 JLINK_IsHalted()
T4C80 000:771.433 - 0.336ms returns FALSE
T4C80 000:773.107 JLINK_IsHalted()
T4C80 000:773.432 - 0.331ms returns FALSE
T4C80 000:774.973 JLINK_IsHalted()
T4C80 000:776.923   CPU_ReadMem(2 bytes @ 0x20000000)
T4C80 000:777.221 - 2.253ms returns TRUE
T4C80 000:777.233 JLINK_ReadReg(R15 (PC))
T4C80 000:777.240 - 0.010ms returns 0x20000000
T4C80 000:777.247 JLINK_ClrBPEx(BPHandle = 0x0000000B)
T4C80 000:777.253 - 0.008ms returns 0x00
T4C80 000:777.260 JLINK_ReadReg(R0)
T4C80 000:777.265 - 0.007ms returns 0x00000000
T4C80 000:777.679 JLINK_WriteMem(0x20000170, 0x0290 Bytes, ...)
T4C80 000:777.688   Data:  C9 43 FE F7 99 FB 00 90 01 99 02 98 FE F7 C0 FA ...
T4C80 000:777.701   CPU_WriteMem(656 bytes @ 0x20000170)
T4C80 000:780.565 - 2.891ms returns 0x290
T4C80 000:780.577 JLINK_WriteMem(0x20000400, 0x0170 Bytes, ...)
T4C80 000:780.583   Data:  30 48 87 B0 05 59 7F 21 68 00 40 08 C9 05 02 90 ...
T4C80 000:780.595   CPU_WriteMem(368 bytes @ 0x20000400)
T4C80 000:782.251 - 1.679ms returns 0x170
T4C80 000:782.266 JLINK_WriteReg(R0, 0x08001C00)
T4C80 000:782.273 - 0.010ms returns 0x00
T4C80 000:782.280 JLINK_WriteReg(R1, 0x00000400)
T4C80 000:782.285 - 0.007ms returns 0x00
T4C80 000:782.291 JLINK_WriteReg(R2, 0x20000170)
T4C80 000:782.296 - 0.007ms returns 0x00
T4C80 000:782.302 JLINK_WriteReg(R3, 0x00000000)
T4C80 000:782.307 - 0.007ms returns 0x00
T4C80 000:782.314 JLINK_WriteReg(R4, 0x00000000)
